T66AC 56145:352 SEGGER J-Link V6.30h Log File (0000ms, 18203ms total)
T66AC 56145:352 DLL Compiled: Mar 16 2018 18:02:51 (0000ms, 18203ms total)
T66AC 56145:352 Logging started @ 2020-05-05 09:06 (0000ms, 18203ms total)
T66AC 56145:352 JLINK_SetWarnOutHandler(...) (0000ms, 18203ms total)
T66AC 56145:352 JLINK_OpenEx(...)
Firmware: J-Link V9 compiled Mar  2 2018 17:07:57
Hardware: V9.60
S/N: 69652017
Feature(s): RDI, GDB, FlashDL, FlashBP, JFlash
TELNET listener socket opened on port 19021Device "STM32F071VB" selected.WEBSRV 
Starting webserver (0109ms, 18312ms total)
T66AC 56145:352 WEBSRV Webserver running on local port 19080 (0109ms, 18312ms total)
T66AC 56145:352   returns O.K. (0109ms, 18312ms total)
T66AC 56145:461 JLINK_GetEmuCaps()  returns 0xB9FF7BBF (0000ms, 18312ms total)
T66AC 56145:462 JLINK_TIF_GetAvailable(...) (0001ms, 18313ms total)
T66AC 56145:463 JLINK_SetErrorOutHandler(...) (0000ms, 18313ms total)
T66AC 56145:463 JLINK_ExecCommand("ProjectFile = "D:\lyn_workdata\working\CubeMX\c++test\MDK-ARM\JLinkSettings.ini"", ...). Device "STM32F071VB" selected.  returns 0x00 (0001ms, 18314ms total)
T66AC 56145:464 JLINK_ExecCommand("Device = STM32F071VBTx", ...). Device "STM32F071VB" selected.  returns 0x00 (0001ms, 18315ms total)
T66AC 56145:465 JLINK_ExecCommand("DisableConnectionTimeout", ...).   returns 0x01 (0000ms, 18315ms total)
T66AC 56145:465 JLINK_GetHardwareVersion()  returns 0x17700 (0000ms, 18315ms total)
T66AC 56145:465 JLINK_GetDLLVersion()  returns 63008 (0000ms, 18315ms total)
T66AC 56145:465 JLINK_GetFirmwareString(...) (0000ms, 18315ms total)
T66AC 56145:465 JLINK_GetDLLVersion()  returns 63008 (0000ms, 18315ms total)
T66AC 56145:465 JLINK_GetCompileDateTime() (0000ms, 18315ms total)
T66AC 56145:465 JLINK_GetFirmwareString(...) (0000ms, 18315ms total)
T66AC 56145:465 JLINK_GetHardwareVersion()  returns 0x17700 (0000ms, 18315ms total)
T66AC 56145:465 JLINK_TIF_Select(JLINKARM_TIF_SWD)  returns 0x00 (0003ms, 18318ms total)
T66AC 56145:469 JLINK_SetSpeed(5000) (0000ms, 18318ms total)
T66AC 56145:469 JLINK_GetId() >0x10B TIF>Found SW-DP with ID 0x0BB11477 >0x0D TIF> >0x28 TIF> >0x0D TIF> >0x28 TIF> >0x0D TIF> >0x28 TIF> >0x0D TIF> >0x28 TIF> >0x0D TIF> >0x21 TIF> >0x0D TIF> >0x28 TIF> >0x0D TIF> >0x28 TIF> >0x0D TIF> >0x28 TIF> >0x0D TIF> >0x21 TIF> >0x0D TIF> >0x21 TIF> >0x0D TIF> >0x28 TIF> >0x0D TIF> >0x21 TIF> >0x0D TIF> >0x21 TIF> >0x0D TIF> >0x28 TIF> >0x0D TIF> >0x21 TIF> >0x0D TIF> >0x21 TIF> >0x0D TIF> >0x28 TIF> >0x0D TIF> >0x28 TIF> >0x0D TIF> >0x28 TIF> >0x0D TIF>
 >0x21 TIF> >0x0D TIF> >0x21 TIF> >0x0D TIF> >0x28 TIF> >0x0D TIF> >0x28 TIF> >0x0D TIF> >0x28 TIF> >0x0D TIF> >0x21 TIF> >0x0D TIF> >0x21 TIF> >0x0D TIF> >0x28 TIF> >0x0D TIF> >0x21 TIF> >0x0D TIF> >0x21 TIF> >0x0D TIF> >0x28 TIF> >0x0D TIF> >0x21 TIF> >0x0D TIF> >0x21 TIF> >0x0D TIF> >0x28 TIF> >0x0D TIF> >0x21 TIF> >0x0D TIF> >0x21 TIF> >0x0D TIF> >0x28 TIF> >0x0D TIF> >0x21 TIF> >0x0D TIF> >0x21 TIF> >0x0D TIF> >0x28 TIF> >0x0D TIF> >0x21 TIF> >0x0D TIF> >0x21 TIF> >0x10B TIF>
Found SW-DP with ID 0x0BB11477 >0x0D TIF> >0x28 TIF> >0x0D TIF> >0x28 TIF> >0x0D TIF> >0x28 TIF> >0x0D TIF> >0x28 TIF> >0x0D TIF> >0x21 TIF> >0x0D TIF> >0x28 TIF>Scanning AP map to find all available APs >0x0D TIF> >0x28 TIF> >0x0D TIF> >0x21 TIF> >0x0D TIF> >0x21 TIF> >0x0D TIF> >0x28 TIF> >0x0D TIF> >0x21 TIF> >0x0D TIF> >0x21 TIF>AP[1]: Stopped AP scan as end of AP map has been reachedAP[0]: AHB-AP (IDR: 0x04770021)Iterating through AP map to find AHB-AP to use >0x42 TIF> >0x28 TIF> >0x0D TIF>
 >0x28 TIF> >0x0D TIF> >0x21 TIF> >0x0D TIF> >0x21 TIF> >0x42 TIF> >0x28 TIF> >0x0D TIF> >0x28 TIF> >0x0D TIF> >0x28 TIF> >0x0D TIF> >0x21 TIF> >0x0D TIF> >0x21 TIF>AP[0]: Core foundAP[0]: AHB-AP ROM base: 0xE00FF000 >0x0D TIF> >0x28 TIF> >0x0D TIF> >0x28 TIF> >0x0D TIF> >0x28 TIF> >0x0D TIF> >0x21 TIF> >0x0D TIF> >0x21 TIF>CPUID register: 0x410CC200. Implementer code: 0x41 (ARM)Found Cortex-M0 r0p0, Little endian. -- CPU_ReadMem(4 bytes @ 0xE000EDF0) -- CPU_WriteMem(4 bytes @ 0xE000EDF0)
 -- CPU_ReadMem(4 bytes @ 0xE0002000)FPUnit: 4 code (BP) slots and 0 literal slots -- CPU_ReadMem(4 bytes @ 0xE000EDFC) -- CPU_WriteMem(4 bytes @ 0xE000EDFC) -- CPU_ReadMem(4 bytes @ 0xE0001000) -- CPU_WriteMem(4 bytes @ 0xE0001000)CoreSight components:ROMTbl[0] @ E00FF000 -- CPU_ReadMem(16 bytes @ 0xE00FF000) -- CPU_ReadMem(16 bytes @ 0xE000EFF0) -- CPU_ReadMem(16 bytes @ 0xE000EFE0)ROMTbl[0][0]: E000E000, CID: B105E00D, PID: 000BB008 SCS -- CPU_ReadMem(16 bytes @ 0xE0001FF0)
 -- CPU_ReadMem(16 bytes @ 0xE0001FE0)ROMTbl[0][1]: E0001000, CID: B105E00D, PID: 000BB00A DWT -- CPU_ReadMem(16 bytes @ 0xE0002FF0) -- CPU_ReadMem(16 bytes @ 0xE0002FE0)ROMTbl[0][2]: E0002000, CID: B105E00D, PID: 000BB00B FPB >0x0D TIF> >0x21 TIF>  returns 0x0BB11477 (0248ms, 18566ms total)
T66AC 56145:717 JLINK_GetDLLVersion()  returns 63008 (0000ms, 18566ms total)
T66AC 56145:717 JLINK_CORE_GetFound()  returns 0x60000FF (0000ms, 18566ms total)
T66AC 56145:717 JLINK_GetDebugInfo(0x100 = JLINKARM_ROM_TABLE_ADDR_INDEX) -- Value=0xE00FF000  returns 0x00 (0000ms, 18566ms total)
T66AC 56145:717 JLINK_GetDebugInfo(0x100 = JLINKARM_ROM_TABLE_ADDR_INDEX) -- Value=0xE00FF000  returns 0x00 (0000ms, 18566ms total)
T66AC 56145:717 JLINK_GetDebugInfo(0x101 = JLINKARM_DEBUG_INFO_ETM_ADDR_INDEX) -- Value=0x00000000  returns 0x00 (0000ms, 18566ms total)
T66AC 56145:717 JLINK_ReadMemEx(0xE0041FF0, 0x0010 Bytes, ..., Flags = 0x02000004) -- CPU_ReadMem(16 bytes @ 0xE0041FF0) - Data: 00 00 00 00 00 00 00 00 00 00 00 00 00 00 00 00  returns 0x10 (0001ms, 18567ms total)
T66AC 56145:718 JLINK_GetDebugInfo(0x102 = JLINKARM_DEBUG_INFO_MTB_ADDR_INDEX) -- Value=0x00000000  returns 0x00 (0000ms, 18567ms total)
T66AC 56145:718 JLINK_GetDebugInfo(0x103 = JLINKARM_DEBUG_INFO_TPIU_ADDR_INDEX) -- Value=0x00000000  returns 0x00 (0000ms, 18567ms total)
T66AC 56145:718 JLINK_ReadMemEx(0xE0040FF0, 0x0010 Bytes, ..., Flags = 0x02000004) -- CPU_ReadMem(16 bytes @ 0xE0040FF0) - Data: 00 00 00 00 00 00 00 00 00 00 00 00 00 00 00 00  returns 0x10 (0001ms, 18568ms total)
T66AC 56145:719 JLINK_GetDebugInfo(0x104 = JLINKARM_DEBUG_INFO_ITM_ADDR_INDEX) -- Value=0xE0000000  returns 0x00 (0000ms, 18568ms total)
T66AC 56145:719 JLINK_GetDebugInfo(0x105 = JLINKARM_DEBUG_INFO_DWT_ADDR_INDEX) -- Value=0xE0001000  returns 0x00 (0000ms, 18568ms total)
T66AC 56145:719 JLINK_GetDebugInfo(0x106 = JLINKARM_DEBUG_INFO_FPB_ADDR_INDEX) -- Value=0xE0002000  returns 0x00 (0000ms, 18568ms total)
T66AC 56145:719 JLINK_GetDebugInfo(0x107 = JLINKARM_DEBUG_INFO_NVIC_ADDR_INDEX) -- Value=0xE000E000  returns 0x00 (0000ms, 18568ms total)
T66AC 56145:719 JLINK_GetDebugInfo(0x10C = JLINKARM_DEBUG_INFO_DBG_ADDR_INDEX) -- Value=0xE000EDF0  returns 0x00 (0000ms, 18568ms total)
T66AC 56145:719 JLINK_GetDebugInfo(0x01 = Unknown) -- Value=0x00000000  returns 0x00 (0000ms, 18568ms total)
T66AC 56145:719 JLINK_ReadMemU32(0xE000ED00, 0x0001 Items, ...) -- CPU_ReadMem(4 bytes @ 0xE000ED00) - Data: 00 C2 0C 41  returns 0x01 (0001ms, 18569ms total)
T66AC 56145:720 JLINK_GetDebugInfo(0x10F = JLINKARM_DEBUG_INFO_HAS_CORTEX_M_SECURITY_EXT_INDEX) -- Value=0x00000000  returns 0x00 (0000ms, 18569ms total)
T66AC 56145:720 JLINK_SetResetType(JLINKARM_CM3_RESET_TYPE_NORMAL)  returns JLINKARM_CM3_RESET_TYPE_NORMAL (0000ms, 18569ms total)
T66AC 56145:720 JLINK_Reset() -- CPU is running -- CPU_WriteMem(4 bytes @ 0xE000EDF0) -- CPU is running -- CPU_WriteMem(4 bytes @ 0xE000EDFC)Reset: Halt core after reset via DEMCR.VC_CORERESET. >0x35 TIF>Reset: Reset device via AIRCR.SYSRESETREQ. -- CPU is running -- CPU_WriteMem(4 bytes @ 0xE000ED0C) >0x0D TIF> >0x28 TIF> -- CPU_ReadMem(4 bytes @ 0xE000EDF0) -- CPU_ReadMem(4 bytes @ 0xE000EDF0) -- CPU is running -- CPU_WriteMem(4 bytes @ 0xE000EDF0) -- CPU is running
 -- CPU_WriteMem(4 bytes @ 0xE000EDFC) -- CPU_ReadMem(4 bytes @ 0xE000EDF0) -- CPU_WriteMem(4 bytes @ 0xE0002000) -- CPU_ReadMem(4 bytes @ 0xE000EDFC) -- CPU_ReadMem(4 bytes @ 0xE0001000) -- CPU_WriteMem(4 bytes @ 0xE0001000) (0073ms, 18642ms total)
T66AC 56145:794 JLINK_ReadReg(R15 (PC))  returns 0x080002B0 (0000ms, 18642ms total)
T66AC 56145:794 JLINK_ReadReg(XPSR)  returns 0xC1000000 (0000ms, 18642ms total)
T66AC 56145:794 JLINK_Halt()  returns 0x00 (0000ms, 18642ms total)
T66AC 56145:794 JLINK_ReadMemU32(0xE000EDF0, 0x0001 Items, ...) -- CPU_ReadMem(4 bytes @ 0xE000EDF0) - Data: 03 00 03 00  returns 0x01 (0000ms, 18642ms total)
T66AC 56145:794 JLINK_WriteU32(0xE000EDF0, 0xA05F0003) -- CPU_WriteMem(4 bytes @ 0xE000EDF0)  returns 0x00 (0001ms, 18643ms total)
T66AC 56145:795 JLINK_WriteU32(0xE000EDFC, 0x01000000) -- CPU_WriteMem(4 bytes @ 0xE000EDFC)  returns 0x00 (0001ms, 18644ms total)
T66AC 56145:796 JLINK_GetHWStatus(...)  returns 0x00 (0001ms, 18645ms total)
T66AC 56145:797 JLINK_GetNumBPUnits(Type = 0xFFFFFF00)  returns 0x04 (0000ms, 18645ms total)
T66AC 56145:797 JLINK_GetNumBPUnits(Type = 0xF0)  returns 0x2000 (0000ms, 18645ms total)
T66AC 56145:797 JLINK_GetNumWPUnits()  returns 0x02 (0000ms, 18645ms total)
T66AC 56145:797 JLINK_GetSpeed()  returns 0xFA0 (0000ms, 18645ms total)
T66AC 56145:797 JLINK_ReadMemU32(0xE000E004, 0x0001 Items, ...) -- CPU_ReadMem(4 bytes @ 0xE000E004) - Data: 00 00 00 00  returns 0x01 (0001ms, 18646ms total)
T66AC 56145:798 JLINK_ReadReg(R15 (PC))  returns 0x080002B0 (0000ms, 18646ms total)
T66AC 56145:798 JLINK_ReadReg(XPSR)  returns 0xC1000000 (0000ms, 18646ms total)
T66AC 56145:883 JLINK_SetResetType(JLINKARM_CM3_RESET_TYPE_NORMAL)  returns JLINKARM_CM3_RESET_TYPE_NORMAL (0000ms, 18646ms total)
T66AC 56145:883 JLINK_Reset() -- CPU_WriteMem(4 bytes @ 0xE000EDF0) -- CPU_WriteMem(4 bytes @ 0xE000EDFC)Reset: Halt core after reset via DEMCR.VC_CORERESET. >0x35 TIF>Reset: Reset device via AIRCR.SYSRESETREQ. -- CPU_WriteMem(4 bytes @ 0xE000ED0C) >0x0D TIF> >0x28 TIF> -- CPU_ReadMem(4 bytes @ 0xE000EDF0) -- CPU_ReadMem(4 bytes @ 0xE000EDF0) -- CPU_WriteMem(4 bytes @ 0xE000EDF0) -- CPU_WriteMem(4 bytes @ 0xE000EDFC) -- CPU_ReadMem(4 bytes @ 0xE000EDF0) -- CPU_WriteMem(4 bytes @ 0xE0002000)
 -- CPU_ReadMem(4 bytes @ 0xE000EDFC) -- CPU_ReadMem(4 bytes @ 0xE0001000) -- CPU_WriteMem(4 bytes @ 0xE0001000) (0074ms, 18720ms total)
T66AC 56145:957 JLINK_ReadReg(R15 (PC))  returns 0x080002B0 (0000ms, 18720ms total)
T66AC 56145:957 JLINK_ReadReg(XPSR)  returns 0xC1000000 (0000ms, 18720ms total)
T66AC 56145:958 JLINK_ReadMemEx(0x080002B0, 0x003C Bytes, ..., Flags = 0x02000000) -- CPU_ReadMem(128 bytes @ 0x08000280) -- Updating C cache (128 bytes @ 0x08000280) -- Read from C cache (60 bytes @ 0x080002B0) - Data: 07 48 80 47 07 48 00 47 FE E7 FE E7 FE E7 FE E7 ...  returns 0x3C (0001ms, 18721ms total)
T66AC 56147:734 JLINK_ReadReg(R0)  returns 0xFFFFFFFF (0001ms, 18722ms total)
T66AC 56147:735 JLINK_ReadReg(R1)  returns 0xFFFFFFFF (0000ms, 18722ms total)
T66AC 56147:735 JLINK_ReadReg(R2)  returns 0xFFFFFFFF (0000ms, 18722ms total)
T66AC 56147:735 JLINK_ReadReg(R3)  returns 0xFFFFFFFF (0000ms, 18722ms total)
T66AC 56147:735 JLINK_ReadReg(R4)  returns 0xFFFFFFFF (0000ms, 18722ms total)
T66AC 56147:735 JLINK_ReadReg(R5)  returns 0xFFFFFFFF (0000ms, 18722ms total)
T66AC 56147:735 JLINK_ReadReg(R6)  returns 0xFFFFFFFF (0000ms, 18722ms total)
T66AC 56147:735 JLINK_ReadReg(R7)  returns 0xFFFFFFFF (0000ms, 18722ms total)
T66AC 56147:735 JLINK_ReadReg(R8)  returns 0xFFFFFFFF (0000ms, 18722ms total)
T66AC 56147:735 JLINK_ReadReg(R9)  returns 0xFFFFFFFF (0000ms, 18722ms total)
T66AC 56147:735 JLINK_ReadReg(R10)  returns 0xFFFFFFFF (0000ms, 18722ms total)
T66AC 56147:735 JLINK_ReadReg(R11)  returns 0xFFFFFFFF (0000ms, 18722ms total)
T66AC 56147:735 JLINK_ReadReg(R12)  returns 0xFFFFFFFF (0000ms, 18722ms total)
T66AC 56147:735 JLINK_ReadReg(R13 (SP))  returns 0x20002F68 (0000ms, 18722ms total)
T66AC 56147:735 JLINK_ReadReg(R14)  returns 0xFFFFFFFF (0000ms, 18722ms total)
T66AC 56147:735 JLINK_ReadReg(R15 (PC))  returns 0x080002B0 (0000ms, 18722ms total)
T66AC 56147:735 JLINK_ReadReg(XPSR)  returns 0xC1000000 (0000ms, 18722ms total)
T66AC 56147:735 JLINK_ReadReg(MSP)  returns 0x20002F68 (0000ms, 18722ms total)
T66AC 56147:735 JLINK_ReadReg(PSP)  returns 0xFFFFFFFC (0000ms, 18722ms total)
T66AC 56147:735 JLINK_ReadReg(CFBP)  returns 0x00000000 (0000ms, 18722ms total)
T60B0 56147:780 JLINK_ReadMemEx(0x080002B0, 0x0002 Bytes, ..., Flags = 0x02000000) -- Read from C cache (2 bytes @ 0x080002B0) - Data: 07 48  returns 0x02 (0000ms, 18722ms total)
T60B0 56147:780 JLINK_SetBPEx(Addr = 0x08006564, Type = 0xFFFFFFF2)  returns 0x00000001 (0000ms, 18722ms total)
T60B0 56147:780 JLINK_SetBPEx(Addr = 0x0800658C, Type = 0xFFFFFFF2)  returns 0x00000002 (0000ms, 18722ms total)
T60B0 56147:780 JLINK_Go() -- CPU_WriteMem(4 bytes @ 0xE0002000) -- CPU_WriteMem(4 bytes @ 0xE0002000) -- CPU_ReadMem(4 bytes @ 0xE0001000) -- CPU_WriteMem(4 bytes @ 0xE0001000) -- CPU_WriteMem(4 bytes @ 0xE0002008) -- CPU_WriteMem(4 bytes @ 0xE000200C) -- CPU_WriteMem(4 bytes @ 0xE0002010) -- CPU_WriteMem(4 bytes @ 0xE0002014) -- CPU_WriteMem(4 bytes @ 0xE0001004) (0006ms, 18728ms total)
T60B0 56147:887 JLINK_IsHalted()  returns TRUE (0002ms, 18730ms total)
T60B0 56147:889 JLINK_Halt()  returns 0x00 (0000ms, 18728ms total)
T60B0 56147:889 JLINK_IsHalted()  returns TRUE (0000ms, 18728ms total)
T60B0 56147:889 JLINK_IsHalted()  returns TRUE (0000ms, 18728ms total)
T60B0 56147:889 JLINK_IsHalted()  returns TRUE (0000ms, 18728ms total)
T60B0 56147:889 JLINK_ReadReg(R15 (PC))  returns 0x08006564 (0000ms, 18728ms total)
T60B0 56147:889 JLINK_ReadReg(XPSR)  returns 0x61000000 (0000ms, 18728ms total)
T60B0 56147:889 JLINK_ClrBPEx(BPHandle = 0x00000001)  returns 0x00 (0000ms, 18728ms total)
T60B0 56147:889 JLINK_ClrBPEx(BPHandle = 0x00000002)  returns 0x00 (0000ms, 18728ms total)
T60B0 56147:889 JLINK_ReadMemU32(0xE000ED30, 0x0001 Items, ...) -- CPU_ReadMem(4 bytes @ 0xE000ED30) - Data: 02 00 00 00  returns 0x01 (0001ms, 18729ms total)
T60B0 56147:890 JLINK_ReadMemU32(0xE0001028, 0x0001 Items, ...) -- CPU_ReadMem(4 bytes @ 0xE0001028) - Data: 00 00 00 00  returns 0x01 (0001ms, 18730ms total)
T60B0 56147:891 JLINK_ReadMemU32(0xE0001038, 0x0001 Items, ...) -- CPU_ReadMem(4 bytes @ 0xE0001038) - Data: 00 00 00 00  returns 0x01 (0001ms, 18731ms total)
T60B0 56147:892 JLINK_ReadReg(R0)  returns 0x20001F68 (0000ms, 18731ms total)
T60B0 56147:892 JLINK_ReadReg(R1)  returns 0x20002768 (0000ms, 18731ms total)
T60B0 56147:892 JLINK_ReadReg(R2)  returns 0x20002768 (0000ms, 18731ms total)
T60B0 56147:892 JLINK_ReadReg(R3)  returns 0x20002768 (0000ms, 18731ms total)
T60B0 56147:892 JLINK_ReadReg(R4)  returns 0x08008810 (0000ms, 18731ms total)
T60B0 56147:892 JLINK_ReadReg(R5)  returns 0x20001EF4 (0000ms, 18731ms total)
T60B0 56147:892 JLINK_ReadReg(R6)  returns 0x00000000 (0000ms, 18731ms total)
T60B0 56147:892 JLINK_ReadReg(R7)  returns 0x00000000 (0000ms, 18731ms total)
T60B0 56147:892 JLINK_ReadReg(R8)  returns 0xFFFFFFFF (0000ms, 18731ms total)
T60B0 56147:892 JLINK_ReadReg(R9)  returns 0xFFFFFFFF (0000ms, 18731ms total)
T60B0 56147:892 JLINK_ReadReg(R10)  returns 0x08008810 (0000ms, 18731ms total)
T60B0 56147:892 JLINK_ReadReg(R11)  returns 0x08008810 (0000ms, 18731ms total)
T60B0 56147:892 JLINK_ReadReg(R12)  returns 0x20001F54 (0000ms, 18731ms total)
T60B0 56147:892 JLINK_ReadReg(R13 (SP))  returns 0x20002F68 (0000ms, 18731ms total)
T60B0 56147:892 JLINK_ReadReg(R14)  returns 0x08000267 (0000ms, 18731ms total)
T60B0 56147:892 JLINK_ReadReg(R15 (PC))  returns 0x08006564 (0000ms, 18731ms total)
T60B0 56147:892 JLINK_ReadReg(XPSR)  returns 0x61000000 (0000ms, 18731ms total)
T60B0 56147:892 JLINK_ReadReg(MSP)  returns 0x20002F68 (0000ms, 18731ms total)
T60B0 56147:892 JLINK_ReadReg(PSP)  returns 0xFFFFFFFC (0000ms, 18731ms total)
T60B0 56147:892 JLINK_ReadReg(CFBP)  returns 0x00000000 (0000ms, 18731ms total)
T60B0 56150:217 JLINK_ReadMemEx(0x08006564, 0x003C Bytes, ..., Flags = 0x02000000) -- CPU_ReadMem(128 bytes @ 0x08006540) -- Updating C cache (128 bytes @ 0x08006540) -- Read from C cache (60 bytes @ 0x08006564) - Data: 1C B5 01 A8 FE F7 96 FA 01 20 10 49 89 69 01 43 ...  returns 0x3C (0002ms, 18733ms total)
T60B0 56150:219 JLINK_ReadMemEx(0x08006564, 0x0002 Bytes, ..., Flags = 0x02000000) -- Read from C cache (2 bytes @ 0x08006564) - Data: 1C B5  returns 0x02 (0000ms, 18733ms total)
T60B0 56150:219 JLINK_Step() -- Read from C cache (2 bytes @ 0x08006564) -- CPU_ReadMem(4 bytes @ 0xE000ED18) -- CPU_WriteMem(4 bytes @ 0xE000ED18) -- CPU_ReadMem(4 bytes @ 0xE000ED18) -- CPU_WriteMem(4 bytes @ 0xE000ED18) -- CPU_ReadMem(4 bytes @ 0xE0001004) -- CPU_WriteMem(16 bytes @ 0x20002F58) -- Simulated  returns 0x00 (0006ms, 18739ms total)
T60B0 56150:225 JLINK_ReadReg(R15 (PC))  returns 0x08006566 (0000ms, 18739ms total)
T60B0 56150:225 JLINK_ReadReg(XPSR)  returns 0x61000000 (0000ms, 18739ms total)
T60B0 56150:225 JLINK_ReadReg(R0)  returns 0x20001F68 (0000ms, 18739ms total)
T60B0 56150:225 JLINK_ReadReg(R1)  returns 0x20002768 (0000ms, 18739ms total)
T60B0 56150:225 JLINK_ReadReg(R2)  returns 0x20002768 (0000ms, 18739ms total)
T60B0 56150:225 JLINK_ReadReg(R3)  returns 0x20002768 (0000ms, 18739ms total)
T60B0 56150:225 JLINK_ReadReg(R4)  returns 0x08008810 (0000ms, 18739ms total)
T60B0 56150:225 JLINK_ReadReg(R5)  returns 0x20001EF4 (0000ms, 18739ms total)
T60B0 56150:225 JLINK_ReadReg(R6)  returns 0x00000000 (0000ms, 18739ms total)
T60B0 56150:225 JLINK_ReadReg(R7)  returns 0x00000000 (0000ms, 18739ms total)
T60B0 56150:225 JLINK_ReadReg(R8)  returns 0xFFFFFFFF (0000ms, 18739ms total)
T60B0 56150:225 JLINK_ReadReg(R9)  returns 0xFFFFFFFF (0000ms, 18739ms total)
T60B0 56150:225 JLINK_ReadReg(R10)  returns 0x08008810 (0000ms, 18739ms total)
T60B0 56150:225 JLINK_ReadReg(R11)  returns 0x08008810 (0000ms, 18739ms total)
T60B0 56150:225 JLINK_ReadReg(R12)  returns 0x20001F54 (0000ms, 18739ms total)
T60B0 56150:225 JLINK_ReadReg(R13 (SP))  returns 0x20002F58 (0000ms, 18739ms total)
T60B0 56150:225 JLINK_ReadReg(R14)  returns 0x08000267 (0000ms, 18739ms total)
T60B0 56150:225 JLINK_ReadReg(R15 (PC))  returns 0x08006566 (0000ms, 18739ms total)
T60B0 56150:225 JLINK_ReadReg(XPSR)  returns 0x61000000 (0000ms, 18739ms total)
T60B0 56150:225 JLINK_ReadReg(MSP)  returns 0x20002F58 (0000ms, 18739ms total)
T60B0 56150:225 JLINK_ReadReg(PSP)  returns 0xFFFFFFFC (0000ms, 18739ms total)
T60B0 56150:225 JLINK_ReadReg(CFBP)  returns 0x00000000 (0000ms, 18739ms total)
T66AC 56150:225 JLINK_ReadMemEx(0x20002F64, 0x0004 Bytes, ..., Flags = 0x02000000) -- CPU_ReadMem(64 bytes @ 0x20002F40) -- Updating C cache (64 bytes @ 0x20002F40) -- Read from C cache (4 bytes @ 0x20002F64) - Data: 67 02 00 08  returns 0x04 (0002ms, 18741ms total)
T60B0 56151:199 JLINK_ReadMemEx(0x08006566, 0x0002 Bytes, ..., Flags = 0x02000000) -- Read from C cache (2 bytes @ 0x08006566) - Data: 01 A8  returns 0x02 (0000ms, 18741ms total)
T60B0 56151:199 JLINK_ReadMemEx(0x08006568, 0x003C Bytes, ..., Flags = 0x02000000) -- Read from C cache (60 bytes @ 0x08006568) - Data: FE F7 96 FA 01 20 10 49 89 69 01 43 0E 4A 91 61 ...  returns 0x3C (0000ms, 18741ms total)
T60B0 56151:199 JLINK_ReadMemEx(0x08006566, 0x0002 Bytes, ..., Flags = 0x02000000) -- Read from C cache (2 bytes @ 0x08006566) - Data: 01 A8  returns 0x02 (0000ms, 18741ms total)
T60B0 56151:199 JLINK_Step() -- Read from C cache (2 bytes @ 0x08006566) -- Simulated  returns 0x00 (0000ms, 18741ms total)
T60B0 56151:199 JLINK_ReadReg(R15 (PC))  returns 0x08006568 (0000ms, 18741ms total)
T60B0 56151:199 JLINK_ReadReg(XPSR)  returns 0x61000000 (0000ms, 18741ms total)
T60B0 56151:199 JLINK_ReadMemEx(0x08006568, 0x003C Bytes, ..., Flags = 0x02000000) -- Read from C cache (60 bytes @ 0x08006568) - Data: FE F7 96 FA 01 20 10 49 89 69 01 43 0E 4A 91 61 ...  returns 0x3C (0000ms, 18741ms total)
T60B0 56151:199 JLINK_ReadMemEx(0x08006568, 0x0002 Bytes, ..., Flags = 0x02000000) -- Read from C cache (2 bytes @ 0x08006568) - Data: FE F7  returns 0x02 (0000ms, 18741ms total)
T60B0 56151:199 JLINK_ReadMemEx(0x0800656A, 0x0002 Bytes, ..., Flags = 0x02000000) -- Read from C cache (2 bytes @ 0x0800656A) - Data: 96 FA  returns 0x02 (0000ms, 18741ms total)
T60B0 56151:199 JLINK_Step() -- Read from C cache (2 bytes @ 0x08006568) -- Read from C cache (2 bytes @ 0x0800656A) -- Simulated  returns 0x00 (0000ms, 18741ms total)
T60B0 56151:199 JLINK_ReadReg(R15 (PC))  returns 0x08004A98 (0000ms, 18741ms total)
T60B0 56151:199 JLINK_ReadReg(XPSR)  returns 0x61000000 (0000ms, 18741ms total)
T60B0 56151:199 JLINK_ReadReg(R0)  returns 0x20002F5C (0000ms, 18741ms total)
T60B0 56151:199 JLINK_ReadReg(R1)  returns 0x20002768 (0000ms, 18741ms total)
T60B0 56151:199 JLINK_ReadReg(R2)  returns 0x20002768 (0000ms, 18741ms total)
T60B0 56151:199 JLINK_ReadReg(R3)  returns 0x20002768 (0000ms, 18741ms total)
T60B0 56151:199 JLINK_ReadReg(R4)  returns 0x08008810 (0000ms, 18741ms total)
T60B0 56151:199 JLINK_ReadReg(R5)  returns 0x20001EF4 (0000ms, 18741ms total)
T60B0 56151:199 JLINK_ReadReg(R6)  returns 0x00000000 (0000ms, 18741ms total)
T60B0 56151:199 JLINK_ReadReg(R7)  returns 0x00000000 (0000ms, 18741ms total)
T60B0 56151:199 JLINK_ReadReg(R8)  returns 0xFFFFFFFF (0000ms, 18741ms total)
T60B0 56151:199 JLINK_ReadReg(R9)  returns 0xFFFFFFFF (0000ms, 18741ms total)
T60B0 56151:199 JLINK_ReadReg(R10)  returns 0x08008810 (0000ms, 18741ms total)
T60B0 56151:199 JLINK_ReadReg(R11)  returns 0x08008810 (0000ms, 18741ms total)
T60B0 56151:199 JLINK_ReadReg(R12)  returns 0x20001F54 (0000ms, 18741ms total)
T60B0 56151:199 JLINK_ReadReg(R13 (SP))  returns 0x20002F58 (0000ms, 18741ms total)
T60B0 56151:199 JLINK_ReadReg(R14)  returns 0x0800656D (0000ms, 18741ms total)
T60B0 56151:199 JLINK_ReadReg(R15 (PC))  returns 0x08004A98 (0000ms, 18741ms total)
T60B0 56151:199 JLINK_ReadReg(XPSR)  returns 0x61000000 (0000ms, 18741ms total)
T60B0 56151:199 JLINK_ReadReg(MSP)  returns 0x20002F58 (0000ms, 18741ms total)
T60B0 56151:199 JLINK_ReadReg(PSP)  returns 0xFFFFFFFC (0000ms, 18741ms total)
T60B0 56151:199 JLINK_ReadReg(CFBP)  returns 0x00000000 (0000ms, 18741ms total)
T66AC 56151:200 JLINK_ReadMemEx(0x20002F64, 0x0004 Bytes, ..., Flags = 0x02000000) -- Read from C cache (4 bytes @ 0x20002F64) - Data: 67 02 00 08  returns 0x04 (0000ms, 18741ms total)
T66AC 56151:204 JLINK_ReadMemEx(0x08004A98, 0x003C Bytes, ..., Flags = 0x02000000) -- CPU_ReadMem(128 bytes @ 0x08004A80) -- Updating C cache (128 bytes @ 0x08004A80) -- Read from C cache (60 bytes @ 0x08004A98) - Data: 70 B5 04 46 06 A1 0C 48 00 68 03 F0 0D F9 05 46 ...  returns 0x3C (0001ms, 18742ms total)
T60B0 56152:036 JLINK_ReadMemEx(0x08004A98, 0x0002 Bytes, ..., Flags = 0x02000000) -- Read from C cache (2 bytes @ 0x08004A98) - Data: 70 B5  returns 0x02 (0000ms, 18742ms total)
T60B0 56152:036 JLINK_Step() -- Read from C cache (2 bytes @ 0x08004A98) -- CPU_WriteMem(16 bytes @ 0x20002F48) -- Simulated  returns 0x00 (0002ms, 18744ms total)
T60B0 56152:038 JLINK_ReadReg(R15 (PC))  returns 0x08004A9A (0000ms, 18744ms total)
T60B0 56152:038 JLINK_ReadReg(XPSR)  returns 0x61000000 (0000ms, 18744ms total)
T60B0 56152:038 JLINK_Step() -- Read from C cache (2 bytes @ 0x08004A9A) -- Simulated  returns 0x00 (0000ms, 18744ms total)
T60B0 56152:038 JLINK_ReadReg(R15 (PC))  returns 0x08004A9C (0000ms, 18744ms total)
T60B0 56152:038 JLINK_ReadReg(XPSR)  returns 0x61000000 (0000ms, 18744ms total)
T60B0 56152:038 JLINK_ReadReg(R0)  returns 0x20002F5C (0000ms, 18744ms total)
T60B0 56152:038 JLINK_ReadReg(R1)  returns 0x20002768 (0000ms, 18744ms total)
T60B0 56152:038 JLINK_ReadReg(R2)  returns 0x20002768 (0000ms, 18744ms total)
T60B0 56152:038 JLINK_ReadReg(R3)  returns 0x20002768 (0000ms, 18744ms total)
T60B0 56152:038 JLINK_ReadReg(R4)  returns 0x20002F5C (0000ms, 18744ms total)
T60B0 56152:038 JLINK_ReadReg(R5)  returns 0x20001EF4 (0000ms, 18744ms total)
T60B0 56152:038 JLINK_ReadReg(R6)  returns 0x00000000 (0000ms, 18744ms total)
T60B0 56152:038 JLINK_ReadReg(R7)  returns 0x00000000 (0000ms, 18744ms total)
T60B0 56152:038 JLINK_ReadReg(R8)  returns 0xFFFFFFFF (0000ms, 18744ms total)
T60B0 56152:038 JLINK_ReadReg(R9)  returns 0xFFFFFFFF (0000ms, 18744ms total)
T60B0 56152:038 JLINK_ReadReg(R10)  returns 0x08008810 (0000ms, 18744ms total)
T60B0 56152:038 JLINK_ReadReg(R11)  returns 0x08008810 (0000ms, 18744ms total)
T60B0 56152:038 JLINK_ReadReg(R12)  returns 0x20001F54 (0000ms, 18744ms total)
T60B0 56152:038 JLINK_ReadReg(R13 (SP))  returns 0x20002F48 (0000ms, 18744ms total)
T60B0 56152:038 JLINK_ReadReg(R14)  returns 0x0800656D (0000ms, 18744ms total)
T60B0 56152:038 JLINK_ReadReg(R15 (PC))  returns 0x08004A9C (0000ms, 18744ms total)
T60B0 56152:038 JLINK_ReadReg(XPSR)  returns 0x61000000 (0000ms, 18744ms total)
T60B0 56152:038 JLINK_ReadReg(MSP)  returns 0x20002F48 (0000ms, 18744ms total)
T60B0 56152:038 JLINK_ReadReg(PSP)  returns 0xFFFFFFFC (0000ms, 18744ms total)
T60B0 56152:038 JLINK_ReadReg(CFBP)  returns 0x00000000 (0000ms, 18744ms total)
T66AC 56152:038 JLINK_ReadMemEx(0x20002F54, 0x0004 Bytes, ..., Flags = 0x02000000) -- CPU_ReadMem(64 bytes @ 0x20002F40) -- Updating C cache (64 bytes @ 0x20002F40) -- Read from C cache (4 bytes @ 0x20002F54) - Data: 6D 65 00 08  returns 0x04 (0001ms, 18745ms total)
T66AC 56152:039 JLINK_ReadMemEx(0x20002F48, 0x0004 Bytes, ..., Flags = 0x02000000) -- Read from C cache (4 bytes @ 0x20002F48) - Data: 10 88 00 08  returns 0x04 (0000ms, 18745ms total)
T66AC 56152:039 JLINK_ReadMemEx(0x20002F4C, 0x0004 Bytes, ..., Flags = 0x02000000) -- Read from C cache (4 bytes @ 0x20002F4C) - Data: F4 1E 00 20  returns 0x04 (0000ms, 18745ms total)
T66AC 56152:039 JLINK_ReadMemEx(0x20002F50, 0x0004 Bytes, ..., Flags = 0x02000000) -- Read from C cache (4 bytes @ 0x20002F50) - Data: 00 00 00 00  returns 0x04 (0000ms, 18745ms total)
T66AC 56152:039 JLINK_ReadMemEx(0x20002F64, 0x0004 Bytes, ..., Flags = 0x02000000) -- Read from C cache (4 bytes @ 0x20002F64) - Data: 67 02 00 08  returns 0x04 (0000ms, 18745ms total)
T66AC 56152:039 JLINK_ReadMemEx(0x08004A9C, 0x003C Bytes, ..., Flags = 0x02000000) -- Read from C cache (60 bytes @ 0x08004A9C) - Data: 06 A1 0C 48 00 68 03 F0 0D F9 05 46 0A 49 02 F0 ...  returns 0x3C (0000ms, 18745ms total)
T60B0 56152:577 JLINK_ReadMemEx(0x08004A9C, 0x0002 Bytes, ..., Flags = 0x02000000) -- Read from C cache (2 bytes @ 0x08004A9C) - Data: 06 A1  returns 0x02 (0000ms, 18745ms total)
T60B0 56152:577 JLINK_Step() -- Read from C cache (2 bytes @ 0x08004A9C) -- Simulated  returns 0x00 (0001ms, 18746ms total)
T60B0 56152:578 JLINK_ReadReg(R15 (PC))  returns 0x08004A9E (0000ms, 18746ms total)
T60B0 56152:578 JLINK_ReadReg(XPSR)  returns 0x61000000 (0000ms, 18746ms total)
T60B0 56152:578 JLINK_Step() -- Read from C cache (2 bytes @ 0x08004A9E) -- Read from C cache (4 bytes @ 0x08004AD0) -- Simulated  returns 0x00 (0000ms, 18746ms total)
T60B0 56152:578 JLINK_ReadReg(R15 (PC))  returns 0x08004AA0 (0000ms, 18746ms total)
T60B0 56152:578 JLINK_ReadReg(XPSR)  returns 0x61000000 (0000ms, 18746ms total)
T60B0 56152:578 JLINK_ReadMemEx(0x08004AA0, 0x003C Bytes, ..., Flags = 0x02000000) -- Read from C cache (60 bytes @ 0x08004AA0) - Data: 00 68 03 F0 0D F9 05 46 0A 49 02 F0 2B F9 0A A0 ...  returns 0x3C (0000ms, 18746ms total)
T60B0 56152:578 JLINK_ReadMemEx(0x08004AA0, 0x0002 Bytes, ..., Flags = 0x02000000) -- Read from C cache (2 bytes @ 0x08004AA0) - Data: 00 68  returns 0x02 (0000ms, 18746ms total)
T60B0 56152:578 JLINK_ReadMemEx(0x08004AA2, 0x0002 Bytes, ..., Flags = 0x02000000) -- Read from C cache (2 bytes @ 0x08004AA2) - Data: 03 F0  returns 0x02 (0000ms, 18746ms total)
T60B0 56152:578 JLINK_Step() -- Read from C cache (2 bytes @ 0x08004AA0) -- CPU_ReadMem(64 bytes @ 0x20000000) -- Updating C cache (64 bytes @ 0x20000000) -- Read from C cache (4 bytes @ 0x2000002C) -- Simulated  returns 0x00 (0001ms, 18747ms total)
T60B0 56152:579 JLINK_ReadReg(R15 (PC))  returns 0x08004AA2 (0000ms, 18747ms total)
T60B0 56152:579 JLINK_ReadReg(XPSR)  returns 0x61000000 (0000ms, 18747ms total)
T60B0 56152:579 JLINK_ReadMemEx(0x08004AA2, 0x0002 Bytes, ..., Flags = 0x02000000) -- Read from C cache (2 bytes @ 0x08004AA2) - Data: 03 F0  returns 0x02 (0000ms, 18747ms total)
T60B0 56152:579 JLINK_ReadMemEx(0x08004AA4, 0x003C Bytes, ..., Flags = 0x02000000) -- Read from C cache (60 bytes @ 0x08004AA4) - Data: 0D F9 05 46 0A 49 02 F0 2B F9 0A A0 FB F7 1A FC ...  returns 0x3C (0000ms, 18747ms total)
T60B0 56152:579 JLINK_ReadMemEx(0x08004AA4, 0x0002 Bytes, ..., Flags = 0x02000000) -- Read from C cache (2 bytes @ 0x08004AA4) - Data: 0D F9  returns 0x02 (0000ms, 18747ms total)
T60B0 56152:579 JLINK_SetBPEx(Addr = 0x08004AA6, Type = 0xFFFFFFF2)  returns 0x00000003 (0000ms, 18747ms total)
T60B0 56152:579 JLINK_SetBPEx(Addr = 0x0800658C, Type = 0xFFFFFFF2)  returns 0x00000004 (0000ms, 18747ms total)
T60B0 56152:579 JLINK_Go() -- CPU_WriteMem(4 bytes @ 0xE0002000) -- CPU_WriteMem(4 bytes @ 0xE0002000) -- CPU_ReadMem(4 bytes @ 0xE0001000) -- CPU_WriteMem(4 bytes @ 0xE0001000) -- CPU_WriteMem(4 bytes @ 0xE0002008) -- CPU_WriteMem(4 bytes @ 0xE0001004) (0006ms, 18753ms total)
T60B0 56152:686 JLINK_IsHalted()  returns TRUE (0003ms, 18756ms total)
T60B0 56152:689 JLINK_Halt()  returns 0x00 (0000ms, 18753ms total)
T60B0 56152:689 JLINK_IsHalted()  returns TRUE (0000ms, 18753ms total)
T60B0 56152:689 JLINK_IsHalted()  returns TRUE (0000ms, 18753ms total)
T60B0 56152:689 JLINK_IsHalted()  returns TRUE (0000ms, 18753ms total)
T60B0 56152:689 JLINK_ReadReg(R15 (PC))  returns 0x08004AA6 (0000ms, 18753ms total)
T60B0 56152:689 JLINK_ReadReg(XPSR)  returns 0x41000000 (0000ms, 18753ms total)
T60B0 56152:689 JLINK_ClrBPEx(BPHandle = 0x00000003)  returns 0x00 (0000ms, 18753ms total)
T60B0 56152:689 JLINK_ClrBPEx(BPHandle = 0x00000004)  returns 0x00 (0000ms, 18753ms total)
T60B0 56152:689 JLINK_ReadMemU32(0xE000ED30, 0x0001 Items, ...) -- CPU_ReadMem(4 bytes @ 0xE000ED30) - Data: 02 00 00 00  returns 0x01 (0000ms, 18753ms total)
T60B0 56152:690 JLINK_ReadMemU32(0xE0001028, 0x0001 Items, ...) -- CPU_ReadMem(4 bytes @ 0xE0001028) - Data: 00 00 00 00  returns 0x01 (0000ms, 18753ms total)
T60B0 56152:690 JLINK_ReadMemU32(0xE0001038, 0x0001 Items, ...) -- CPU_ReadMem(4 bytes @ 0xE0001038) - Data: 00 00 00 00  returns 0x01 (0001ms, 18754ms total)
T60B0 56152:691 JLINK_ReadMemEx(0x08004AA4, 0x003C Bytes, ..., Flags = 0x02000000) -- CPU_ReadMem(128 bytes @ 0x08004A80) -- Updating C cache (128 bytes @ 0x08004A80) -- Read from C cache (60 bytes @ 0x08004AA4) - Data: 0D F9 05 46 0A 49 02 F0 2B F9 0A A0 FB F7 1A FC ...  returns 0x3C (0002ms, 18756ms total)
T60B0 56152:693 JLINK_ReadMemEx(0x08004AA4, 0x0002 Bytes, ..., Flags = 0x02000000) -- Read from C cache (2 bytes @ 0x08004AA4) - Data: 0D F9  returns 0x02 (0000ms, 18756ms total)
T60B0 56152:693 JLINK_ReadMemEx(0x08004AA6, 0x0002 Bytes, ..., Flags = 0x02000000) -- Read from C cache (2 bytes @ 0x08004AA6) - Data: 05 46  returns 0x02 (0000ms, 18756ms total)
T60B0 56152:693 JLINK_ReadMemEx(0x08004AA6, 0x0002 Bytes, ..., Flags = 0x02000000) -- Read from C cache (2 bytes @ 0x08004AA6) - Data: 05 46  returns 0x02 (0000ms, 18756ms total)
T60B0 56152:693 JLINK_ReadMemEx(0x08004AA8, 0x003C Bytes, ..., Flags = 0x02000000) -- Read from C cache (60 bytes @ 0x08004AA8) - Data: 0A 49 02 F0 2B F9 0A A0 FB F7 1A FC 20 46 70 BD ...  returns 0x3C (0000ms, 18756ms total)
T60B0 56152:693 JLINK_ReadMemEx(0x08004AA8, 0x0002 Bytes, ..., Flags = 0x02000000) -- Read from C cache (2 bytes @ 0x08004AA8) - Data: 0A 49  returns 0x02 (0000ms, 18756ms total)
T60B0 56152:693 JLINK_Step() -- Read from C cache (2 bytes @ 0x08004AA6) -- CPU_ReadMem(4 bytes @ 0xE0001004) -- Simulated  returns 0x00 (0001ms, 18757ms total)
T60B0 56152:694 JLINK_ReadReg(R15 (PC))  returns 0x08004AA8 (0000ms, 18757ms total)
T60B0 56152:694 JLINK_ReadReg(XPSR)  returns 0x41000000 (0000ms, 18757ms total)
T60B0 56152:694 JLINK_ReadMemEx(0x08004AA8, 0x003C Bytes, ..., Flags = 0x02000000) -- Read from C cache (60 bytes @ 0x08004AA8) - Data: 0A 49 02 F0 2B F9 0A A0 FB F7 1A FC 20 46 70 BD ...  returns 0x3C (0000ms, 18757ms total)
T60B0 56152:694 JLINK_ReadMemEx(0x08004AA8, 0x0002 Bytes, ..., Flags = 0x02000000) -- Read from C cache (2 bytes @ 0x08004AA8) - Data: 0A 49  returns 0x02 (0000ms, 18757ms total)
T60B0 56152:694 JLINK_ReadMemEx(0x08004AAA, 0x0002 Bytes, ..., Flags = 0x02000000) -- Read from C cache (2 bytes @ 0x08004AAA) - Data: 02 F0  returns 0x02 (0000ms, 18757ms total)
T60B0 56152:694 JLINK_Step() -- Read from C cache (2 bytes @ 0x08004AA8) -- Read from C cache (4 bytes @ 0x08004AD4) -- Simulated  returns 0x00 (0000ms, 18757ms total)
T60B0 56152:694 JLINK_ReadReg(R15 (PC))  returns 0x08004AAA (0000ms, 18757ms total)
T60B0 56152:694 JLINK_ReadReg(XPSR)  returns 0x41000000 (0000ms, 18757ms total)
T60B0 56152:694 JLINK_ReadMemEx(0x08004AAA, 0x0002 Bytes, ..., Flags = 0x02000000) -- Read from C cache (2 bytes @ 0x08004AAA) - Data: 02 F0  returns 0x02 (0000ms, 18757ms total)
T60B0 56152:694 JLINK_ReadMemEx(0x08004AAC, 0x003C Bytes, ..., Flags = 0x02000000) -- Read from C cache (60 bytes @ 0x08004AAC) - Data: 2B F9 0A A0 FB F7 1A FC 20 46 70 BD 68 65 6C 6C ...  returns 0x3C (0000ms, 18757ms total)
T60B0 56152:694 JLINK_ReadMemEx(0x08004AAC, 0x0002 Bytes, ..., Flags = 0x02000000) -- Read from C cache (2 bytes @ 0x08004AAC) - Data: 2B F9  returns 0x02 (0000ms, 18757ms total)
T60B0 56152:694 JLINK_SetBPEx(Addr = 0x08004AAE, Type = 0xFFFFFFF2)  returns 0x00000005 (0000ms, 18757ms total)
T60B0 56152:694 JLINK_SetBPEx(Addr = 0x0800658C, Type = 0xFFFFFFF2)  returns 0x00000006 (0000ms, 18757ms total)
T60B0 56152:694 JLINK_Go() -- CPU_WriteMem(4 bytes @ 0xE0002000) -- CPU_WriteMem(4 bytes @ 0xE0002000) -- CPU_ReadMem(4 bytes @ 0xE0001000) -- CPU_WriteMem(4 bytes @ 0xE0001000) -- CPU_WriteMem(4 bytes @ 0xE0002008) -- CPU_WriteMem(4 bytes @ 0xE0001004) (0006ms, 18763ms total)
T60B0 56152:802 JLINK_IsHalted()  returns TRUE (0003ms, 18766ms total)
T60B0 56152:805 JLINK_Halt()  returns 0x00 (0000ms, 18763ms total)
T60B0 56152:805 JLINK_IsHalted()  returns TRUE (0000ms, 18763ms total)
T60B0 56152:805 JLINK_IsHalted()  returns TRUE (0000ms, 18763ms total)
T60B0 56152:805 JLINK_IsHalted()  returns TRUE (0000ms, 18763ms total)
T60B0 56152:805 JLINK_ReadReg(R15 (PC))  returns 0x08004AAE (0000ms, 18763ms total)
T60B0 56152:805 JLINK_ReadReg(XPSR)  returns 0x01000000 (0000ms, 18763ms total)
T60B0 56152:805 JLINK_ClrBPEx(BPHandle = 0x00000005)  returns 0x00 (0000ms, 18763ms total)
T60B0 56152:805 JLINK_ClrBPEx(BPHandle = 0x00000006)  returns 0x00 (0000ms, 18763ms total)
T60B0 56152:805 JLINK_ReadMemU32(0xE000ED30, 0x0001 Items, ...) -- CPU_ReadMem(4 bytes @ 0xE000ED30) - Data: 02 00 00 00  returns 0x01 (0001ms, 18764ms total)
T60B0 56152:806 JLINK_ReadMemU32(0xE0001028, 0x0001 Items, ...) -- CPU_ReadMem(4 bytes @ 0xE0001028) - Data: 00 00 00 00  returns 0x01 (0000ms, 18764ms total)
T60B0 56152:806 JLINK_ReadMemU32(0xE0001038, 0x0001 Items, ...) -- CPU_ReadMem(4 bytes @ 0xE0001038) - Data: 00 00 00 00  returns 0x01 (0001ms, 18765ms total)
T60B0 56152:807 JLINK_ReadReg(R0)  returns 0x20000680 (0000ms, 18765ms total)
T60B0 56152:807 JLINK_ReadReg(R1)  returns 0xFFFFFFFF (0001ms, 18766ms total)
T60B0 56152:808 JLINK_ReadReg(R2)  returns 0x00000000 (0000ms, 18766ms total)
T60B0 56152:808 JLINK_ReadReg(R3)  returns 0x0000000A (0000ms, 18766ms total)
T60B0 56152:808 JLINK_ReadReg(R4)  returns 0x20002F5C (0000ms, 18766ms total)
T60B0 56152:808 JLINK_ReadReg(R5)  returns 0x20000680 (0000ms, 18766ms total)
T60B0 56152:808 JLINK_ReadReg(R6)  returns 0x00000000 (0000ms, 18766ms total)
T60B0 56152:808 JLINK_ReadReg(R7)  returns 0x00000000 (0000ms, 18766ms total)
T60B0 56152:808 JLINK_ReadReg(R8)  returns 0xFFFFFFFF (0000ms, 18766ms total)
T60B0 56152:808 JLINK_ReadReg(R9)  returns 0xFFFFFFFF (0000ms, 18766ms total)
T60B0 56152:808 JLINK_ReadReg(R10)  returns 0x08008810 (0000ms, 18766ms total)
T60B0 56152:808 JLINK_ReadReg(R11)  returns 0x08008810 (0000ms, 18766ms total)
T60B0 56152:808 JLINK_ReadReg(R12)  returns 0x20001F54 (0000ms, 18766ms total)
T60B0 56152:808 JLINK_ReadReg(R13 (SP))  returns 0x20002F48 (0000ms, 18766ms total)
T60B0 56152:808 JLINK_ReadReg(R14)  returns 0x0800726F (0000ms, 18766ms total)
T60B0 56152:808 JLINK_ReadReg(R15 (PC))  returns 0x08004AAE (0000ms, 18766ms total)
T60B0 56152:808 JLINK_ReadReg(XPSR)  returns 0x01000000 (0000ms, 18766ms total)
T60B0 56152:808 JLINK_ReadReg(MSP)  returns 0x20002F48 (0000ms, 18766ms total)
T60B0 56152:808 JLINK_ReadReg(PSP)  returns 0xFFFFFFFC (0000ms, 18766ms total)
T60B0 56152:808 JLINK_ReadReg(CFBP)  returns 0x00000000 (0000ms, 18766ms total)
T66AC 56152:808 JLINK_ReadMemEx(0x20002F54, 0x0004 Bytes, ..., Flags = 0x02000000) -- CPU_ReadMem(64 bytes @ 0x20002F40) -- Updating C cache (64 bytes @ 0x20002F40) -- Read from C cache (4 bytes @ 0x20002F54) - Data: 6D 65 00 08  returns 0x04 (0001ms, 18767ms total)
T66AC 56152:809 JLINK_ReadMemEx(0x20002F48, 0x0004 Bytes, ..., Flags = 0x02000000) -- Read from C cache (4 bytes @ 0x20002F48) - Data: 10 88 00 08  returns 0x04 (0000ms, 18767ms total)
T66AC 56152:809 JLINK_ReadMemEx(0x20002F4C, 0x0004 Bytes, ..., Flags = 0x02000000) -- Read from C cache (4 bytes @ 0x20002F4C) - Data: F4 1E 00 20  returns 0x04 (0000ms, 18767ms total)
T66AC 56152:809 JLINK_ReadMemEx(0x20002F50, 0x0004 Bytes, ..., Flags = 0x02000000) -- Read from C cache (4 bytes @ 0x20002F50) - Data: 00 00 00 00  returns 0x04 (0000ms, 18767ms total)
T66AC 56152:809 JLINK_ReadMemEx(0x20002F64, 0x0004 Bytes, ..., Flags = 0x02000000) -- Read from C cache (4 bytes @ 0x20002F64) - Data: 67 02 00 08  returns 0x04 (0000ms, 18767ms total)
T66AC 56152:809 JLINK_ReadMemEx(0x08004AAE, 0x0002 Bytes, ..., Flags = 0x02000000) -- CPU_ReadMem(64 bytes @ 0x08004A80) -- Updating C cache (64 bytes @ 0x08004A80) -- Read from C cache (2 bytes @ 0x08004AAE) - Data: 0A A0  returns 0x02 (0001ms, 18768ms total)
T66AC 56152:810 JLINK_ReadMemEx(0x08004AB0, 0x003C Bytes, ..., Flags = 0x02000000) -- CPU_ReadMem(64 bytes @ 0x08004AC0) -- Updating C cache (64 bytes @ 0x08004AC0) -- Read from C cache (60 bytes @ 0x08004AB0) - Data: FB F7 1A FC 20 46 70 BD 68 65 6C 6C 6F 20 74 68 ...  returns 0x3C (0001ms, 18769ms total)
T60B0 56153:344 JLINK_ReadMemEx(0x08004AAE, 0x0002 Bytes, ..., Flags = 0x02000000) -- Read from C cache (2 bytes @ 0x08004AAE) - Data: 0A A0  returns 0x02 (0000ms, 18769ms total)
T60B0 56153:344 JLINK_Step() -- Read from C cache (2 bytes @ 0x08004AAE) -- CPU_ReadMem(4 bytes @ 0xE0001004) -- Simulated  returns 0x00 (0002ms, 18771ms total)
T60B0 56153:346 JLINK_ReadReg(R15 (PC))  returns 0x08004AB0 (0000ms, 18771ms total)
T60B0 56153:346 JLINK_ReadReg(XPSR)  returns 0x01000000 (0000ms, 18771ms total)
T60B0 56153:346 JLINK_SetBPEx(Addr = 0x08004AB4, Type = 0xFFFFFFF2)  returns 0x00000007 (0000ms, 18771ms total)
T60B0 56153:346 JLINK_SetBPEx(Addr = 0x0800658C, Type = 0xFFFFFFF2)  returns 0x00000008 (0000ms, 18771ms total)
T60B0 56153:346 JLINK_Go() -- CPU_WriteMem(4 bytes @ 0xE0002000) -- CPU_WriteMem(4 bytes @ 0xE0002000) -- CPU_ReadMem(4 bytes @ 0xE0001000) -- CPU_WriteMem(4 bytes @ 0xE0001000) -- CPU_WriteMem(4 bytes @ 0xE0002008) -- CPU_WriteMem(4 bytes @ 0xE0001004) (0007ms, 18778ms total)
T60B0 56153:454 JLINK_IsHalted()  returns TRUE (0003ms, 18781ms total)
T60B0 56153:457 JLINK_Halt()  returns 0x00 (0000ms, 18778ms total)
T60B0 56153:457 JLINK_IsHalted()  returns TRUE (0000ms, 18778ms total)
T60B0 56153:457 JLINK_IsHalted()  returns TRUE (0000ms, 18778ms total)
T60B0 56153:457 JLINK_IsHalted()  returns TRUE (0000ms, 18778ms total)
T60B0 56153:457 JLINK_ReadReg(R15 (PC))  returns 0x08004AB4 (0000ms, 18778ms total)
T60B0 56153:457 JLINK_ReadReg(XPSR)  returns 0x61000000 (0000ms, 18778ms total)
T60B0 56153:457 JLINK_ClrBPEx(BPHandle = 0x00000007)  returns 0x00 (0000ms, 18778ms total)
T60B0 56153:457 JLINK_ClrBPEx(BPHandle = 0x00000008)  returns 0x00 (0000ms, 18778ms total)
T60B0 56153:457 JLINK_ReadMemU32(0xE000ED30, 0x0001 Items, ...) -- CPU_ReadMem(4 bytes @ 0xE000ED30) - Data: 02 00 00 00  returns 0x01 (0000ms, 18778ms total)
T60B0 56153:457 JLINK_ReadMemU32(0xE0001028, 0x0001 Items, ...) -- CPU_ReadMem(4 bytes @ 0xE0001028) - Data: 00 00 00 00  returns 0x01 (0001ms, 18779ms total)
T60B0 56153:458 JLINK_ReadMemU32(0xE0001038, 0x0001 Items, ...) -- CPU_ReadMem(4 bytes @ 0xE0001038) - Data: 00 00 00 00  returns 0x01 (0001ms, 18780ms total)
T60B0 56153:459 JLINK_ReadReg(R0)  returns 0x00000016 (0000ms, 18780ms total)
T60B0 56153:459 JLINK_ReadReg(R1)  returns 0x00000080 (0000ms, 18780ms total)
T60B0 56153:459 JLINK_ReadReg(R2)  returns 0x20002EE0 (0000ms, 18780ms total)
T60B0 56153:459 JLINK_ReadReg(R3)  returns 0x08004AB5 (0000ms, 18780ms total)
T60B0 56153:459 JLINK_ReadReg(R4)  returns 0x20002F5C (0000ms, 18780ms total)
T60B0 56153:459 JLINK_ReadReg(R5)  returns 0x20000680 (0000ms, 18780ms total)
T60B0 56153:459 JLINK_ReadReg(R6)  returns 0x00000000 (0000ms, 18780ms total)
T60B0 56153:459 JLINK_ReadReg(R7)  returns 0x00000000 (0000ms, 18780ms total)
T60B0 56153:459 JLINK_ReadReg(R8)  returns 0xFFFFFFFF (0000ms, 18780ms total)
T60B0 56153:459 JLINK_ReadReg(R9)  returns 0xFFFFFFFF (0000ms, 18780ms total)
T60B0 56153:459 JLINK_ReadReg(R10)  returns 0x08008810 (0000ms, 18780ms total)
T60B0 56153:459 JLINK_ReadReg(R11)  returns 0x08008810 (0000ms, 18780ms total)
T60B0 56153:459 JLINK_ReadReg(R12)  returns 0x20001F54 (0000ms, 18780ms total)
T60B0 56153:459 JLINK_ReadReg(R13 (SP))  returns 0x20002F48 (0000ms, 18780ms total)
T60B0 56153:459 JLINK_ReadReg(R14)  returns 0x080007F5 (0000ms, 18780ms total)
T60B0 56153:459 JLINK_ReadReg(R15 (PC))  returns 0x08004AB4 (0000ms, 18780ms total)
T60B0 56153:459 JLINK_ReadReg(XPSR)  returns 0x61000000 (0000ms, 18780ms total)
T60B0 56153:459 JLINK_ReadReg(MSP)  returns 0x20002F48 (0000ms, 18780ms total)
T60B0 56153:459 JLINK_ReadReg(PSP)  returns 0xFFFFFFFC (0000ms, 18780ms total)
T60B0 56153:459 JLINK_ReadReg(CFBP)  returns 0x00000000 (0000ms, 18780ms total)
T66AC 56153:460 JLINK_ReadMemEx(0x20002F54, 0x0004 Bytes, ..., Flags = 0x02000000) -- CPU_ReadMem(64 bytes @ 0x20002F40) -- Updating C cache (64 bytes @ 0x20002F40) -- Read from C cache (4 bytes @ 0x20002F54) - Data: 6D 65 00 08  returns 0x04 (0001ms, 18781ms total)
T66AC 56153:461 JLINK_ReadMemEx(0x20002F48, 0x0004 Bytes, ..., Flags = 0x02000000) -- Read from C cache (4 bytes @ 0x20002F48) - Data: 10 88 00 08  returns 0x04 (0000ms, 18781ms total)
T66AC 56153:461 JLINK_ReadMemEx(0x20002F4C, 0x0004 Bytes, ..., Flags = 0x02000000) -- Read from C cache (4 bytes @ 0x20002F4C) - Data: F4 1E 00 20  returns 0x04 (0000ms, 18781ms total)
T66AC 56153:461 JLINK_ReadMemEx(0x20002F50, 0x0004 Bytes, ..., Flags = 0x02000000) -- Read from C cache (4 bytes @ 0x20002F50) - Data: 00 00 00 00  returns 0x04 (0000ms, 18781ms total)
T66AC 56153:461 JLINK_ReadMemEx(0x20002F64, 0x0004 Bytes, ..., Flags = 0x02000000) -- Read from C cache (4 bytes @ 0x20002F64) - Data: 67 02 00 08  returns 0x04 (0000ms, 18781ms total)
T66AC 56153:461 JLINK_ReadMemEx(0x08004AB4, 0x003C Bytes, ..., Flags = 0x02000000) -- CPU_ReadMem(128 bytes @ 0x08004A80) -- Updating C cache (128 bytes @ 0x08004A80) -- Read from C cache (60 bytes @ 0x08004AB4) - Data: 20 46 70 BD 68 65 6C 6C 6F 20 74 68 69 73 20 69 ...  returns 0x3C (0001ms, 18782ms total)
T60B0 56158:138 JLINK_ReadMemEx(0x08004AB4, 0x0002 Bytes, ..., Flags = 0x02000000) -- Read from C cache (2 bytes @ 0x08004AB4) - Data: 20 46  returns 0x02 (0000ms, 18782ms total)
T60B0 56158:138 JLINK_Step() -- Read from C cache (2 bytes @ 0x08004AB4) -- CPU_ReadMem(4 bytes @ 0xE0001004) -- Simulated  returns 0x00 (0002ms, 18784ms total)
T60B0 56158:140 JLINK_ReadReg(R15 (PC))  returns 0x08004AB6 (0000ms, 18784ms total)
T60B0 56158:140 JLINK_ReadReg(XPSR)  returns 0x61000000 (0000ms, 18784ms total)
T60B0 56158:140 JLINK_Step() -- Read from C cache (2 bytes @ 0x08004AB6) -- Read from C cache (16 bytes @ 0x20002F48) -- Simulated  returns 0x00 (0000ms, 18784ms total)
T60B0 56158:140 JLINK_ReadReg(R15 (PC))  returns 0x0800656C (0000ms, 18784ms total)
T60B0 56158:140 JLINK_ReadReg(XPSR)  returns 0x61000000 (0000ms, 18784ms total)
T60B0 56158:140 JLINK_ReadReg(R0)  returns 0x20002F5C (0000ms, 18784ms total)
T60B0 56158:140 JLINK_ReadReg(R1)  returns 0x00000080 (0000ms, 18784ms total)
T60B0 56158:140 JLINK_ReadReg(R2)  returns 0x20002EE0 (0000ms, 18784ms total)
T60B0 56158:140 JLINK_ReadReg(R3)  returns 0x08004AB5 (0000ms, 18784ms total)
T60B0 56158:140 JLINK_ReadReg(R4)  returns 0x08008810 (0000ms, 18784ms total)
T60B0 56158:140 JLINK_ReadReg(R5)  returns 0x20001EF4 (0000ms, 18784ms total)
T60B0 56158:140 JLINK_ReadReg(R6)  returns 0x00000000 (0000ms, 18784ms total)
T60B0 56158:140 JLINK_ReadReg(R7)  returns 0x00000000 (0000ms, 18784ms total)
T60B0 56158:140 JLINK_ReadReg(R8)  returns 0xFFFFFFFF (0000ms, 18784ms total)
T60B0 56158:140 JLINK_ReadReg(R9)  returns 0xFFFFFFFF (0000ms, 18784ms total)
T60B0 56158:140 JLINK_ReadReg(R10)  returns 0x08008810 (0000ms, 18784ms total)
T60B0 56158:140 JLINK_ReadReg(R11)  returns 0x08008810 (0000ms, 18784ms total)
T60B0 56158:140 JLINK_ReadReg(R12)  returns 0x20001F54 (0000ms, 18784ms total)
T60B0 56158:140 JLINK_ReadReg(R13 (SP))  returns 0x20002F58 (0000ms, 18784ms total)
T60B0 56158:140 JLINK_ReadReg(R14)  returns 0x080007F5 (0000ms, 18784ms total)
T60B0 56158:140 JLINK_ReadReg(R15 (PC))  returns 0x0800656C (0000ms, 18784ms total)
T60B0 56158:140 JLINK_ReadReg(XPSR)  returns 0x61000000 (0000ms, 18784ms total)
T60B0 56158:140 JLINK_ReadReg(MSP)  returns 0x20002F58 (0000ms, 18784ms total)
T60B0 56158:140 JLINK_ReadReg(PSP)  returns 0xFFFFFFFC (0000ms, 18784ms total)
T60B0 56158:140 JLINK_ReadReg(CFBP)  returns 0x00000000 (0000ms, 18784ms total)
T66AC 56158:141 JLINK_ReadMemEx(0x20002F64, 0x0004 Bytes, ..., Flags = 0x02000000) -- Read from C cache (4 bytes @ 0x20002F64) - Data: 67 02 00 08  returns 0x04 (0000ms, 18784ms total)
T66AC 56158:149 JLINK_ReadMemEx(0x0800656C, 0x003C Bytes, ..., Flags = 0x02000000) -- CPU_ReadMem(128 bytes @ 0x08006540) -- Updating C cache (128 bytes @ 0x08006540) -- Read from C cache (60 bytes @ 0x0800656C) - Data: 01 20 10 49 89 69 01 43 0E 4A 91 61 11 46 89 69 ...  returns 0x3C (0001ms, 18785ms total)
T60B0 56159:599 JLINK_ReadMemEx(0x0800656C, 0x0002 Bytes, ..., Flags = 0x02000000) -- Read from C cache (2 bytes @ 0x0800656C) - Data: 01 20  returns 0x02 (0000ms, 18785ms total)
T60B0 56159:599 JLINK_Step() -- Read from C cache (2 bytes @ 0x0800656C) -- Simulated  returns 0x00 (0000ms, 18785ms total)
T60B0 56159:599 JLINK_ReadReg(R15 (PC))  returns 0x0800656E (0000ms, 18785ms total)
T60B0 56159:599 JLINK_ReadReg(XPSR)  returns 0x21000000 (0000ms, 18785ms total)
T60B0 56159:599 JLINK_SetBPEx(Addr = 0x08006582, Type = 0xFFFFFFF2)  returns 0x00000009 (0000ms, 18785ms total)
T60B0 56159:599 JLINK_SetBPEx(Addr = 0x0800658C, Type = 0xFFFFFFF2)  returns 0x0000000A (0000ms, 18785ms total)
T60B0 56159:599 JLINK_Go() -- CPU_WriteMem(4 bytes @ 0xE0002000) -- CPU_WriteMem(4 bytes @ 0xE0002000) -- CPU_ReadMem(4 bytes @ 0xE0001000) -- CPU_WriteMem(4 bytes @ 0xE0001000) -- CPU_WriteMem(4 bytes @ 0xE0002008) -- CPU_WriteMem(4 bytes @ 0xE0001004) (0007ms, 18792ms total)
T60B0 56159:706 JLINK_IsHalted()  returns TRUE (0003ms, 18795ms total)
T60B0 56159:709 JLINK_Halt()  returns 0x00 (0000ms, 18792ms total)
T60B0 56159:709 JLINK_IsHalted()  returns TRUE (0000ms, 18792ms total)
T60B0 56159:709 JLINK_IsHalted()  returns TRUE (0000ms, 18792ms total)
T60B0 56159:709 JLINK_IsHalted()  returns TRUE (0000ms, 18792ms total)
T60B0 56159:709 JLINK_ReadReg(R15 (PC))  returns 0x08006582 (0000ms, 18792ms total)
T60B0 56159:709 JLINK_ReadReg(XPSR)  returns 0x21000000 (0000ms, 18792ms total)
T60B0 56159:709 JLINK_ClrBPEx(BPHandle = 0x00000009)  returns 0x00 (0000ms, 18792ms total)
T60B0 56159:709 JLINK_ClrBPEx(BPHandle = 0x0000000A)  returns 0x00 (0000ms, 18792ms total)
T60B0 56159:709 JLINK_ReadMemU32(0xE000ED30, 0x0001 Items, ...) -- CPU_ReadMem(4 bytes @ 0xE000ED30) - Data: 02 00 00 00  returns 0x01 (0001ms, 18793ms total)
T60B0 56159:710 JLINK_ReadMemU32(0xE0001028, 0x0001 Items, ...) -- CPU_ReadMem(4 bytes @ 0xE0001028) - Data: 00 00 00 00  returns 0x01 (0001ms, 18794ms total)
T60B0 56159:711 JLINK_ReadMemU32(0xE0001038, 0x0001 Items, ...) -- CPU_ReadMem(4 bytes @ 0xE0001038) - Data: 00 00 00 00  returns 0x01 (0001ms, 18795ms total)
T60B0 56159:712 JLINK_ReadReg(R0)  returns 0x00000001 (0000ms, 18795ms total)
T60B0 56159:712 JLINK_ReadReg(R1)  returns 0x00000001 (0000ms, 18795ms total)
T60B0 56159:712 JLINK_ReadReg(R2)  returns 0x40021000 (0000ms, 18795ms total)
T60B0 56159:712 JLINK_ReadReg(R3)  returns 0x08004AB5 (0000ms, 18795ms total)
T60B0 56159:712 JLINK_ReadReg(R4)  returns 0x08008810 (0000ms, 18795ms total)
T60B0 56159:712 JLINK_ReadReg(R5)  returns 0x20001EF4 (0000ms, 18795ms total)
T60B0 56159:712 JLINK_ReadReg(R6)  returns 0x00000000 (0000ms, 18795ms total)
T60B0 56159:712 JLINK_ReadReg(R7)  returns 0x00000000 (0000ms, 18795ms total)
T60B0 56159:712 JLINK_ReadReg(R8)  returns 0xFFFFFFFF (0000ms, 18795ms total)
T60B0 56159:712 JLINK_ReadReg(R9)  returns 0xFFFFFFFF (0000ms, 18795ms total)
T60B0 56159:712 JLINK_ReadReg(R10)  returns 0x08008810 (0000ms, 18795ms total)
T60B0 56159:712 JLINK_ReadReg(R11)  returns 0x08008810 (0000ms, 18795ms total)
T60B0 56159:712 JLINK_ReadReg(R12)  returns 0x20001F54 (0000ms, 18795ms total)
T60B0 56159:712 JLINK_ReadReg(R13 (SP))  returns 0x20002F58 (0000ms, 18795ms total)
T60B0 56159:712 JLINK_ReadReg(R14)  returns 0x080007F5 (0000ms, 18795ms total)
T60B0 56159:712 JLINK_ReadReg(R15 (PC))  returns 0x08006582 (0000ms, 18795ms total)
T60B0 56159:712 JLINK_ReadReg(XPSR)  returns 0x21000000 (0000ms, 18795ms total)
T60B0 56159:712 JLINK_ReadReg(MSP)  returns 0x20002F58 (0000ms, 18795ms total)
T60B0 56159:712 JLINK_ReadReg(PSP)  returns 0xFFFFFFFC (0000ms, 18795ms total)
T60B0 56159:712 JLINK_ReadReg(CFBP)  returns 0x00000000 (0000ms, 18795ms total)
